
T0A30 000:280 SEGGER J-Link V4.94j Log File (0001ms, 0271ms total)
T0A30 000:280 DLL Compiled: Dec 10 2014 13:52:41 (0001ms, 0271ms total)
T0A30 000:280 Logging started @ 2015-01-21 16:10 (0001ms, 0271ms total)
T0A30 000:281 JLINK_SetWarnOutHandler(...) (0000ms, 0271ms total)
T0A30 000:281 JLINK_OpenEx(...)
Firmware: J-Link ARM V8 compiled Nov 28 2014 13:44:46
Hardware: V8.00
S/N: 17935099
Feature(s): RDI,FlashDL,FlashBP,JFlash  returns O.K. (0268ms, 0539ms total)
T0A30 000:549 JLINK_SetErrorOutHandler(...) (0000ms, 0539ms total)
T0A30 000:549 JLINK_ExecCommand("ProjectFile = "C:\Users\star\ucos-iii\JLinkSettings.ini"", ...)  returns 0x00 (0000ms, 0539ms total)
T0A30 000:549 JLINK_ExecCommand("Device = STM32F103ZE", ...)Device "STM32F103ZE" selected.  returns 0x00 (0001ms, 0540ms total)
T0A30 000:550 JLINK_ExecCommand("DisableConnectionTimeout", ...)  returns 0x01 (0000ms, 0540ms total)
T0A30 000:550 JLINK_GetHardwareVersion()  returns 0x13880 (0000ms, 0540ms total)
T0A30 000:550 JLINK_GetDLLVersion()  returns 49410 (0000ms, 0540ms total)
T0A30 000:550 JLINK_GetFirmwareString(...) (0000ms, 0540ms total)
T0A30 000:550 JLINK_GetDLLVersion()  returns 49410 (0001ms, 0541ms total)
T0A30 000:551 JLINK_GetCompileDateTime() (0000ms, 0541ms total)
T0A30 000:551 JLINK_GetFirmwareString(...) (0000ms, 0541ms total)
T0A30 000:551 JLINK_GetHardwareVersion()  returns 0x13880 (0000ms, 0541ms total)
T0A30 000:551 JLINK_TIF_Select(JLINKARM_TIF_JTAG)  returns 0x00 (0006ms, 0547ms total)
T0A30 000:557 JLINK_SetMaxSpeed() >0x2F8 JTAG>TotalIRLen = 9, IRPrint = 0x0011 >0x30 JTAG> >0x210 JTAG> >0x40 JTAG> >0x40 JTAG> >0x40 JTAG> >0x30 JTAG> >0x40 JTAG> >0x40 JTAG> >0x40 JTAG> >0x40 JTAG> >0x40 JTAG> >0x40 JTAG> >0x40 JTAG> >0x40 JTAG> >0x2F8 JTAG>TotalIRLen = 9, IRPrint = 0x0011 >0x30 JTAG> >0x210 JTAG> >0x70 JTAG> >0x40 JTAG> >0x40 JTAG> >0x40 JTAG> >0x50 JTAG> >0x80 JTAG> >0x40 JTAG> >0x30 JTAG> >0x40 JTAG> >0x40 JTAG> >0x30 JTAG> >0x40 JTAG> >0x50 JTAG>Found Cortex-M3 r1p1, Little endian.
 -- CPU_WriteMem(4 bytes @ 0xE0002000) -- CPU_ReadMem(4 bytes @ 0xE000EDF0) -- CPU_ReadMem(4 bytes @ 0xE0002000)FPUnit: 6 code (BP) slots and 2 literal slots -- CPU_ReadMem(4 bytes @ 0xE000EDFC) -- CPU_ReadMem(4 bytes @ 0xE0001000) -- CPU_WriteMem(4 bytes @ 0xE0001000) -- CPU_ReadMem(4 bytes @ 0xE000ED88) -- CPU_WriteMem(4 bytes @ 0xE000ED88) -- CPU_ReadMem(4 bytes @ 0xE000ED88) -- CPU_WriteMem(4 bytes @ 0xE000ED88) -- CPU_ReadMem(4 bytes @ 0xE00FF010)TPIU fitted. -- CPU_ReadMem(4 bytes @ 0xE00FF014)
ETM fitted. -- CPU_ReadMem(4 bytes @ 0xE00FF018) >0x38 JTAG> (0062ms, 0609ms total)
T0A30 000:619 JLINK_GetSpeed()  returns 0xFA0 (0000ms, 0609ms total)
T0A30 000:619 JLINK_GetIdData(...) ScanLen=9 NumDevices=2 aId[0]=0x3BA00477 aIrRead[0]=0 aScanLen[0]=0 aScanRead[0]=0 (0000ms, 0609ms total)
T0A30 000:619 JLINK_JTAG_GetDeviceID(DeviceIndex = 0)  returns 0x3BA00477 (0000ms, 0609ms total)
T0A30 000:619 JLINK_JTAG_GetDeviceInfo(DeviceIndex = 0)  returns 0x00 (0000ms, 0609ms total)
T0A30 000:619 JLINK_JTAG_GetDeviceID(DeviceIndex = 1)  returns 0x6414041 (0000ms, 0609ms total)
T0A30 000:619 JLINK_JTAG_GetDeviceInfo(DeviceIndex = 1)  returns 0x00 (0000ms, 0609ms total)
T0A30 000:619 JLINK_CORE_GetFound()  returns 0x30000FF (0001ms, 0610ms total)
T0A30 000:620 JLINK_ReadMem (0xE00FFFF0, 0x0010 Bytes, ...) -- CPU is running -- CPU_ReadMem(16 bytes @ 0xE00FFFF0) - Data: 0D 00 00 00 10 00 00 00 05 00 00 00 B1 00 00 00  returns 0x00 (0001ms, 0611ms total)
T0A30 000:621 JLINK_ReadMem (0xE00FFFD0, 0x0020 Bytes, ...) -- CPU is running -- CPU_ReadMem(32 bytes @ 0xE00FFFD0) - Data: 00 00 00 00 00 00 00 00 00 00 00 00 00 00 00 00 ...  returns 0x00 (0001ms, 0612ms total)
T0A30 000:622 JLINK_ReadMem (0xE00FF000, 0x0018 Bytes, ...) -- CPU is running -- CPU_ReadMem(24 bytes @ 0xE00FF000) - Data: 03 F0 F0 FF 03 20 F0 FF 03 30 F0 FF 03 10 F0 FF ...  returns 0x00 (0001ms, 0613ms total)
T0A30 000:623 JLINK_CORE_GetFound()  returns 0x30000FF (0000ms, 0613ms total)
T0A30 000:623 JLINK_ReadMemU32(0xE000ED00, 0x0001 Items, ...) -- CPU is running -- CPU_ReadMem(4 bytes @ 0xE000ED00) - Data: 31 C2 1F 41  returns 0x01 (0001ms, 0614ms total)
T0A30 000:624 JLINK_SetResetType(JLINKARM_RESET_TYPE_NORMAL)  returns JLINKARM_RESET_TYPE_NORMAL (0000ms, 0614ms total)
T0A30 000:624 JLINK_Reset() -- CPU is running -- CPU_WriteMem(4 bytes @ 0xE000EDF0) -- CPU is running -- CPU_WriteMem(4 bytes @ 0xE000EDFC) -- CPU is running -- CPU_WriteMem(4 bytes @ 0xE000ED0C) -- CPU is running -- CPU_ReadMem(4 bytes @ 0xE000EDF0) -- CPU is running -- CPU_ReadMem(4 bytes @ 0xE000EDF0) -- CPU is running -- CPU_WriteMem(4 bytes @ 0xE000EDF0) -- CPU is running -- CPU_WriteMem(4 bytes @ 0xE000EDFC) -- CPU is running -- CPU_ReadMem(4 bytes @ 0xE000EDF0) >0x80 JTAG> >0x40 JTAG> >0x30 JTAG>
 >0x40 JTAG> >0x50 JTAG> >0x40 JTAG> -- CPU_WriteMem(4 bytes @ 0xE000EDFC) -- CPU_WriteMem(4 bytes @ 0xE0001028) -- CPU_WriteMem(4 bytes @ 0xE0001038) -- CPU_WriteMem(4 bytes @ 0xE0001048) -- CPU_WriteMem(4 bytes @ 0xE0001058) -- CPU_WriteMem(4 bytes @ 0xE0002000) -- CPU_ReadMem(4 bytes @ 0xE000EDFC) -- CPU_ReadMem(4 bytes @ 0xE0001000) (0036ms, 0650ms total)
T0A30 000:660 JLINK_ReadReg(R15 (PC))  returns 0x08000144 (0000ms, 0650ms total)
T0A30 000:660 JLINK_ReadReg(XPSR)  returns 0x01000000 (0000ms, 0650ms total)
T0A30 000:660 JLINK_Halt()  returns 0x00 (0000ms, 0650ms total)
T0A30 000:660 JLINK_IsHalted()  returns TRUE (0000ms, 0650ms total)
T0A30 000:660 JLINK_ReadMemU32(0xE000EDF0, 0x0001 Items, ...) -- CPU_ReadMem(4 bytes @ 0xE000EDF0) - Data: 03 00 03 00  returns 0x01 (0001ms, 0651ms total)
T0A30 000:661 JLINK_WriteU32(0xE000EDF0, 0xA05F0003) -- CPU_WriteMem(4 bytes @ 0xE000EDF0)  returns 0x00 (0001ms, 0652ms total)
T0A30 000:662 JLINK_WriteU32(0xE000EDFC, 0x01000000) -- CPU_WriteMem(4 bytes @ 0xE000EDFC)  returns 0x00 (0001ms, 0653ms total)
T0A30 000:664 JLINK_GetHWStatus(...)  returns 0x00 (0000ms, 0653ms total)
T0A30 000:664 JLINK_GetNumBPUnits(Type = 0xFFFFFF00)  returns 0x06 (0000ms, 0653ms total)
T0A30 000:664 JLINK_GetNumBPUnits(Type = 0xF0)  returns 0x2000 (0000ms, 0653ms total)
T0A30 000:665 JLINK_GetNumWPUnits()  returns 0x04 (0000ms, 0654ms total)
T0A30 000:665 JLINK_GetSpeed()  returns 0xFA0 (0000ms, 0654ms total)
T0A30 000:665 JLINK_ReadMemU32(0xE000E004, 0x0001 Items, ...) -- CPU_ReadMem(4 bytes @ 0xE000E004) - Data: 01 00 00 00  returns 0x01 (0001ms, 0655ms total)
T0A30 000:666 JLINK_ReadMemU32(0xE000E004, 0x0001 Items, ...) -- CPU_ReadMem(4 bytes @ 0xE000E004) - Data: 01 00 00 00  returns 0x01 (0001ms, 0656ms total)
T0A30 000:667 JLINK_WriteMem(0xE0001000, 0x001C Bytes, ...) - Data: 01 00 00 00 00 00 00 00 00 00 00 00 00 00 00 00 ... -- CPU_WriteMem(28 bytes @ 0xE0001000)  returns 0x1C (0002ms, 0658ms total)
T0A30 000:669 JLINK_ReadMem (0xE0001000, 0x001C Bytes, ...) -- CPU_ReadMem(28 bytes @ 0xE0001000) - Data: 01 00 00 40 00 00 00 00 00 00 00 00 00 00 00 00 ...  returns 0x00 (0001ms, 0659ms total)
T0A30 000:670 JLINK_ReadReg(R15 (PC))  returns 0x08000144 (0000ms, 0659ms total)
T0A30 000:670 JLINK_ReadReg(XPSR)  returns 0x01000000 (0000ms, 0659ms total)
T0A30 000:764 JLINK_SetResetType(JLINKARM_RESET_TYPE_NORMAL)  returns JLINKARM_RESET_TYPE_NORMAL (0000ms, 0659ms total)
T0A30 000:764 JLINK_Reset() -- CPU_WriteMem(4 bytes @ 0xE000EDF0) -- CPU_WriteMem(4 bytes @ 0xE000EDFC) -- CPU_WriteMem(4 bytes @ 0xE000ED0C) -- CPU_ReadMem(4 bytes @ 0xE000EDF0) -- CPU_ReadMem(4 bytes @ 0xE000EDF0) -- CPU_WriteMem(4 bytes @ 0xE000EDF0) -- CPU_WriteMem(4 bytes @ 0xE000EDFC) -- CPU is running -- CPU_ReadMem(4 bytes @ 0xE000EDF0) >0x80 JTAG> >0x40 JTAG> >0x30 JTAG> >0x40 JTAG> >0x50 JTAG> >0x40 JTAG> -- CPU_WriteMem(4 bytes @ 0xE000EDFC) -- CPU_WriteMem(4 bytes @ 0xE0001028)
 -- CPU_WriteMem(4 bytes @ 0xE0001038) -- CPU_WriteMem(4 bytes @ 0xE0001048) -- CPU_WriteMem(4 bytes @ 0xE0001058) -- CPU_WriteMem(4 bytes @ 0xE0002000) -- CPU_ReadMem(4 bytes @ 0xE000EDFC) -- CPU_ReadMem(4 bytes @ 0xE0001000) (0036ms, 0695ms total)
T0A30 000:800 JLINK_ReadReg(R15 (PC))  returns 0x08000144 (0000ms, 0695ms total)
T0A30 000:800 JLINK_ReadReg(XPSR)  returns 0x01000000 (0000ms, 0695ms total)
T0A30 000:810 JLINK_ReadMemU32(0xE0001004, 0x0001 Items, ...) -- CPU_ReadMem(4 bytes @ 0xE0001004) - Data: CA 07 00 00  returns 0x01 (0001ms, 0696ms total)
T0A30 000:902 JLINK_ReadMem (0x08000144, 0x003C Bytes, ...) -- CPU_ReadMem(64 bytes @ 0x08000140) -- Updating C cache (64 bytes @ 0x08000140) -- Read from C cache (60 bytes @ 0x08000144) - Data: 06 48 80 47 06 48 00 47 FE E7 FE E7 FE E7 FE E7 ...  returns 0x00 (0001ms, 0697ms total)
T0A30 001:352 JLINK_ReadMem (0x00000000, 0x004C Bytes, ...) -- CPU_ReadMem(4 bytes @ 0x00000004) -- CPU_ReadMem(128 bytes @ 0x08000000) -- Updating C cache (128 bytes @ 0x08000000) -- Read from C cache (76 bytes @ 0x08000000) - Data: F8 2E 00 20 45 01 00 08 ED 08 00 08 95 08 00 08 ...  returns 0x00 (0004ms, 0701ms total)
T0A30 001:598 JLINK_ReadMem (0x00000000, 0x0070 Bytes, ...) -- Read from C cache (112 bytes @ 0x08000000) - Data: F8 2E 00 20 45 01 00 08 ED 08 00 08 95 08 00 08 ...  returns 0x00 (0000ms, 0701ms total)
T0B70 001:892 JLINK_SetBPEx(Addr = 0x080056B4, Type = 0xFFFFFFF2)  returns 0x00000001 (0001ms, 0702ms total)
T0B70 001:893 JLINK_Go() -- CPU_WriteMem(4 bytes @ 0xE0002008) -- CPU_WriteMem(4 bytes @ 0xE000200C) -- CPU_WriteMem(4 bytes @ 0xE0002010) -- CPU_WriteMem(4 bytes @ 0xE0002014) -- CPU_WriteMem(4 bytes @ 0xE0002018) -- CPU_WriteMem(4 bytes @ 0xE000201C) -- CPU_WriteMem(4 bytes @ 0xE0001004) (0008ms, 0710ms total)
T0B70 002:001 JLINK_IsHalted()  returns TRUE (0003ms, 0713ms total)
T0B70 002:004 JLINK_Halt()  returns 0x00 (0000ms, 0710ms total)
T0B70 002:004 JLINK_IsHalted()  returns TRUE (0000ms, 0710ms total)
T0B70 002:004 JLINK_IsHalted()  returns TRUE (0000ms, 0710ms total)
T0B70 002:004 JLINK_IsHalted()  returns TRUE (0000ms, 0710ms total)
T0B70 002:004 JLINK_ReadReg(R15 (PC))  returns 0x080056B4 (0000ms, 0710ms total)
T0B70 002:004 JLINK_ReadReg(XPSR)  returns 0x61000000 (0000ms, 0710ms total)
T0B70 002:004 JLINK_ClrBPEx(BPHandle = 0x00000001)  returns 0x00 (0000ms, 0710ms total)
T0B70 002:004 JLINK_ReadMemU32(0xE000ED30, 0x0001 Items, ...) -- CPU_ReadMem(4 bytes @ 0xE000ED30) - Data: 03 00 00 00  returns 0x01 (0002ms, 0712ms total)
T0B70 002:006 JLINK_ReadMemU32(0xE0001028, 0x0001 Items, ...) -- CPU_ReadMem(4 bytes @ 0xE0001028) - Data: 00 00 00 00  returns 0x01 (0001ms, 0713ms total)
T0B70 002:007 JLINK_ReadMemU32(0xE0001038, 0x0001 Items, ...) -- CPU_ReadMem(4 bytes @ 0xE0001038) - Data: 00 02 00 00  returns 0x01 (0001ms, 0714ms total)
T0B70 002:008 JLINK_ReadMemU32(0xE0001048, 0x0001 Items, ...) -- CPU_ReadMem(4 bytes @ 0xE0001048) - Data: 00 00 00 00  returns 0x01 (0001ms, 0715ms total)
T0B70 002:009 JLINK_ReadMemU32(0xE0001058, 0x0001 Items, ...) -- CPU_ReadMem(4 bytes @ 0xE0001058) - Data: 00 00 00 00  returns 0x01 (0001ms, 0716ms total)
T0B70 002:010 JLINK_ReadReg(R0)  returns 0x080056B5 (0000ms, 0716ms total)
T0B70 002:010 JLINK_ReadReg(R1)  returns 0x20002EF8 (0000ms, 0716ms total)
T0B70 002:010 JLINK_ReadReg(R2)  returns 0x00000000 (0000ms, 0716ms total)
T0B70 002:010 JLINK_ReadReg(R3)  returns 0x08005199 (0000ms, 0716ms total)
T0B70 002:010 JLINK_ReadReg(R4)  returns 0x080059B8 (0000ms, 0716ms total)
T0B70 002:010 JLINK_ReadReg(R5)  returns 0x080059B8 (0000ms, 0716ms total)
T0B70 002:010 JLINK_ReadReg(R6)  returns 0x06060606 (0000ms, 0716ms total)
T0B70 002:010 JLINK_ReadReg(R7)  returns 0x07070707 (0001ms, 0717ms total)
T0B70 002:011 JLINK_ReadReg(R8)  returns 0x08080808 (0000ms, 0717ms total)
T0B70 002:011 JLINK_ReadReg(R9)  returns 0x09090909 (0000ms, 0717ms total)
T0B70 002:011 JLINK_ReadReg(R10)  returns 0x10101010 (0000ms, 0717ms total)
T0B70 002:011 JLINK_ReadReg(R11)  returns 0x11111111 (0000ms, 0717ms total)
T0B70 002:011 JLINK_ReadReg(R12)  returns 0x12121212 (0000ms, 0717ms total)
T0B70 002:011 JLINK_ReadReg(R13 (SP))  returns 0x20002EF8 (0000ms, 0717ms total)
T0B70 002:011 JLINK_ReadReg(R14)  returns 0x08000399 (0000ms, 0717ms total)
T0B70 002:011 JLINK_ReadReg(R15 (PC))  returns 0x080056B4 (0000ms, 0717ms total)
T0B70 002:011 JLINK_ReadReg(XPSR)  returns 0x61000000 (0000ms, 0717ms total)
T0B70 002:011 JLINK_ReadReg(MSP)  returns 0x20002EF8 (0000ms, 0717ms total)
T0B70 002:011 JLINK_ReadReg(PSP)  returns 0x20000DD0 (0000ms, 0717ms total)
T0B70 002:011 JLINK_ReadReg(CFBP)  returns 0x00000000 (0000ms, 0717ms total)
T0A30 002:055 JLINK_ReadMem (0x20002EF0, 0x0002 Bytes, ...) -- CPU_ReadMem(64 bytes @ 0x20002EC0) -- Updating C cache (64 bytes @ 0x20002EC0) -- Read from C cache (2 bytes @ 0x20002EF0) - Data: 00 00  returns 0x00 (0001ms, 0718ms total)
T0A30 002:060 JLINK_ReadMemU32(0xE0001004, 0x0001 Items, ...) -- CPU_ReadMem(4 bytes @ 0xE0001004) - Data: 22 86 00 00  returns 0x01 (0001ms, 0719ms total)
T0B70 005:962 JLINK_ReadMem (0x080056B4, 0x003C Bytes, ...) -- CPU_ReadMem(128 bytes @ 0x08005680) -- Updating C cache (128 bytes @ 0x08005680) -- Read from C cache (60 bytes @ 0x080056B4) - Data: 00 B5 8B B0 0A A8 FB F7 03 FA 0A A8 03 21 00 22 ...  returns 0x00 (0003ms, 0722ms total)
T0B70 005:965 JLINK_Step() -- Read from C cache (2 bytes @ 0x080056B4) -- CPU_WriteMem(4 bytes @ 0x20002EF4) -- Simulated  returns 0x00 (0002ms, 0724ms total)
T0B70 005:967 JLINK_ReadReg(R15 (PC))  returns 0x080056B6 (0000ms, 0724ms total)
T0B70 005:967 JLINK_ReadReg(XPSR)  returns 0x61000000 (0000ms, 0724ms total)
T0B70 005:967 JLINK_Step() -- Read from C cache (2 bytes @ 0x080056B6) -- Simulated  returns 0x00 (0000ms, 0724ms total)
T0B70 005:967 JLINK_ReadReg(R15 (PC))  returns 0x080056B8 (0000ms, 0724ms total)
T0B70 005:967 JLINK_ReadReg(XPSR)  returns 0x61000000 (0000ms, 0724ms total)
T0B70 005:967 JLINK_ReadReg(R0)  returns 0x080056B5 (0000ms, 0724ms total)
T0B70 005:967 JLINK_ReadReg(R1)  returns 0x20002EF8 (0000ms, 0724ms total)
T0B70 005:967 JLINK_ReadReg(R2)  returns 0x00000000 (0000ms, 0724ms total)
T0B70 005:967 JLINK_ReadReg(R3)  returns 0x08005199 (0000ms, 0724ms total)
T0B70 005:967 JLINK_ReadReg(R4)  returns 0x080059B8 (0000ms, 0724ms total)
T0B70 005:967 JLINK_ReadReg(R5)  returns 0x080059B8 (0000ms, 0724ms total)
T0B70 005:967 JLINK_ReadReg(R6)  returns 0x06060606 (0001ms, 0725ms total)
T0B70 005:968 JLINK_ReadReg(R7)  returns 0x07070707 (0000ms, 0725ms total)
T0B70 005:968 JLINK_ReadReg(R8)  returns 0x08080808 (0000ms, 0725ms total)
T0B70 005:968 JLINK_ReadReg(R9)  returns 0x09090909 (0000ms, 0725ms total)
T0B70 005:968 JLINK_ReadReg(R10)  returns 0x10101010 (0000ms, 0725ms total)
T0B70 005:968 JLINK_ReadReg(R11)  returns 0x11111111 (0000ms, 0725ms total)
T0B70 005:968 JLINK_ReadReg(R12)  returns 0x12121212 (0000ms, 0725ms total)
T0B70 005:968 JLINK_ReadReg(R13 (SP))  returns 0x20002EC8 (0000ms, 0725ms total)
T0B70 005:968 JLINK_ReadReg(R14)  returns 0x08000399 (0000ms, 0725ms total)
T0B70 005:968 JLINK_ReadReg(R15 (PC))  returns 0x080056B8 (0000ms, 0725ms total)
T0B70 005:968 JLINK_ReadReg(XPSR)  returns 0x61000000 (0000ms, 0725ms total)
T0B70 005:968 JLINK_ReadReg(MSP)  returns 0x20002EC8 (0000ms, 0725ms total)
T0B70 005:968 JLINK_ReadReg(PSP)  returns 0x20000DD0 (0000ms, 0725ms total)
T0B70 005:968 JLINK_ReadReg(CFBP)  returns 0x00000000 (0000ms, 0725ms total)
T0A30 005:968 JLINK_ReadMem (0x20002EF4, 0x0004 Bytes, ...) -- CPU_ReadMem(64 bytes @ 0x20002EC0) -- Updating C cache (64 bytes @ 0x20002EC0) -- Read from C cache (4 bytes @ 0x20002EF4) - Data: 99 03 00 08  returns 0x00 (0002ms, 0727ms total)
T0A30 005:970 JLINK_ReadMem (0x20002EF0, 0x0002 Bytes, ...) -- Read from C cache (2 bytes @ 0x20002EF0) - Data: 00 00  returns 0x00 (0000ms, 0727ms total)
T0A30 005:970 JLINK_ReadMemU32(0xE0001004, 0x0001 Items, ...) - Data: 22 86 00 00  returns 0x01 (0000ms, 0727ms total)
T0A30 005:974 JLINK_ReadMem (0x080056B8, 0x003C Bytes, ...) -- Read from C cache (60 bytes @ 0x080056B8) - Data: 0A A8 FB F7 03 FA 0A A8 03 21 00 22 05 92 CD E9 ...  returns 0x00 (0000ms, 0727ms total)
T0B70 007:300 JLINK_Step() -- Read from C cache (2 bytes @ 0x080056B8) -- Simulated  returns 0x00 (0002ms, 0729ms total)
T0B70 007:302 JLINK_ReadReg(R15 (PC))  returns 0x080056BA (0000ms, 0729ms total)
T0B70 007:302 JLINK_ReadReg(XPSR)  returns 0x61000000 (0000ms, 0729ms total)
T0B70 007:302 JLINK_SetBPEx(Addr = 0x080056BE, Type = 0xFFFFFFF2)  returns 0x00000002 (0000ms, 0729ms total)
T0B70 007:302 JLINK_Go() -- CPU_WriteMem(4 bytes @ 0xE0002008) -- CPU_WriteMem(4 bytes @ 0xE0001004) (0004ms, 0733ms total)
T0B70 007:406 JLINK_IsHalted()  returns TRUE (0004ms, 0737ms total)
T0B70 007:410 JLINK_Halt()  returns 0x00 (0000ms, 0733ms total)
T0B70 007:410 JLINK_IsHalted()  returns TRUE (0000ms, 0733ms total)
T0B70 007:410 JLINK_IsHalted()  returns TRUE (0000ms, 0733ms total)
T0B70 007:410 JLINK_IsHalted()  returns TRUE (0000ms, 0733ms total)
T0B70 007:410 JLINK_ReadReg(R15 (PC))  returns 0x080056BE (0000ms, 0733ms total)
T0B70 007:410 JLINK_ReadReg(XPSR)  returns 0x61000000 (0000ms, 0733ms total)
T0B70 007:410 JLINK_ClrBPEx(BPHandle = 0x00000002)  returns 0x00 (0000ms, 0733ms total)
T0B70 007:410 JLINK_ReadMemU32(0xE000ED30, 0x0001 Items, ...) -- CPU_ReadMem(4 bytes @ 0xE000ED30) - Data: 03 00 00 00  returns 0x01 (0001ms, 0734ms total)
T0B70 007:411 JLINK_ReadMemU32(0xE0001028, 0x0001 Items, ...) -- CPU_ReadMem(4 bytes @ 0xE0001028) - Data: 00 00 00 00  returns 0x01 (0001ms, 0735ms total)
T0B70 007:412 JLINK_ReadMemU32(0xE0001038, 0x0001 Items, ...) -- CPU_ReadMem(4 bytes @ 0xE0001038) - Data: 00 02 00 00  returns 0x01 (0001ms, 0736ms total)
T0B70 007:413 JLINK_ReadMemU32(0xE0001048, 0x0001 Items, ...) -- CPU_ReadMem(4 bytes @ 0xE0001048) - Data: 00 00 00 00  returns 0x01 (0001ms, 0737ms total)
T0B70 007:414 JLINK_ReadMemU32(0xE0001058, 0x0001 Items, ...) -- CPU_ReadMem(4 bytes @ 0xE0001058) - Data: 00 00 00 00  returns 0x01 (0001ms, 0738ms total)
T0B70 007:415 JLINK_ReadReg(R0)  returns 0x080057D4 (0000ms, 0738ms total)
T0B70 007:415 JLINK_ReadReg(R1)  returns 0x0000F0C6 (0000ms, 0738ms total)
T0B70 007:415 JLINK_ReadReg(R2)  returns 0x200024C0 (0000ms, 0738ms total)
T0B70 007:415 JLINK_ReadReg(R3)  returns 0x00000000 (0000ms, 0738ms total)
T0B70 007:415 JLINK_ReadReg(R4)  returns 0x080059B8 (0000ms, 0738ms total)
T0B70 007:415 JLINK_ReadReg(R5)  returns 0x080059B8 (0000ms, 0738ms total)
T0B70 007:415 JLINK_ReadReg(R6)  returns 0x06060606 (0000ms, 0738ms total)
T0B70 007:415 JLINK_ReadReg(R7)  returns 0x07070707 (0000ms, 0738ms total)
T0B70 007:415 JLINK_ReadReg(R8)  returns 0x08080808 (0000ms, 0738ms total)
T0B70 007:415 JLINK_ReadReg(R9)  returns 0x09090909 (0000ms, 0738ms total)
T0B70 007:415 JLINK_ReadReg(R10)  returns 0x10101010 (0000ms, 0738ms total)
T0B70 007:415 JLINK_ReadReg(R11)  returns 0x11111111 (0000ms, 0738ms total)
T0B70 007:415 JLINK_ReadReg(R12)  returns 0x04040404 (0000ms, 0738ms total)
T0B70 007:415 JLINK_ReadReg(R13 (SP))  returns 0x20002EC8 (0000ms, 0738ms total)
T0B70 007:415 JLINK_ReadReg(R14)  returns 0x08000BD5 (0001ms, 0739ms total)
T0B70 007:416 JLINK_ReadReg(R15 (PC))  returns 0x080056BE (0000ms, 0739ms total)
T0B70 007:416 JLINK_ReadReg(XPSR)  returns 0x61000000 (0000ms, 0739ms total)
T0B70 007:416 JLINK_ReadReg(MSP)  returns 0x20002EC8 (0000ms, 0739ms total)
T0B70 007:416 JLINK_ReadReg(PSP)  returns 0x20000DD0 (0000ms, 0739ms total)
T0B70 007:416 JLINK_ReadReg(CFBP)  returns 0x00000000 (0000ms, 0739ms total)
T0A30 007:416 JLINK_ReadMem (0x20002EF4, 0x0004 Bytes, ...) -- CPU_ReadMem(64 bytes @ 0x20002EC0) -- Updating C cache (64 bytes @ 0x20002EC0) -- Read from C cache (4 bytes @ 0x20002EF4) - Data: 99 03 00 08  returns 0x00 (0002ms, 0741ms total)
T0A30 007:418 JLINK_ReadMem (0x20002EF0, 0x0002 Bytes, ...) -- Read from C cache (2 bytes @ 0x20002EF0) - Data: 00 00  returns 0x00 (0000ms, 0741ms total)
T0A30 007:418 JLINK_ReadMemU32(0xE0001004, 0x0001 Items, ...) -- CPU_ReadMem(4 bytes @ 0xE0001004) - Data: 5E F4 00 00  returns 0x01 (0001ms, 0742ms total)
T0B70 008:401 JLINK_ReadMem (0x080056BE, 0x0002 Bytes, ...) -- CPU_ReadMem(64 bytes @ 0x08005680) -- Updating C cache (64 bytes @ 0x08005680) -- Read from C cache (2 bytes @ 0x080056BE) - Data: 0A A8  returns 0x00 (0002ms, 0744ms total)
T0B70 008:403 JLINK_ReadMem (0x080056C0, 0x003C Bytes, ...) -- CPU_ReadMem(64 bytes @ 0x080056C0) -- Updating C cache (64 bytes @ 0x080056C0) -- Read from C cache (60 bytes @ 0x080056C0) - Data: 03 21 00 22 05 92 CD E9 06 21 08 90 10 46 80 21 ...  returns 0x00 (0001ms, 0745ms total)
T0B70 008:404 JLINK_Step() -- Read from C cache (2 bytes @ 0x080056BE) -- Simulated  returns 0x00 (0001ms, 0746ms total)
T0B70 008:405 JLINK_ReadReg(R15 (PC))  returns 0x080056C0 (0000ms, 0746ms total)
T0B70 008:405 JLINK_ReadReg(XPSR)  returns 0x61000000 (0000ms, 0746ms total)
T0B70 008:405 JLINK_Step() -- Read from C cache (2 bytes @ 0x080056C0) -- Simulated  returns 0x00 (0000ms, 0746ms total)
T0B70 008:405 JLINK_ReadReg(R15 (PC))  returns 0x080056C2 (0000ms, 0746ms total)
T0B70 008:405 JLINK_ReadReg(XPSR)  returns 0x21000000 (0000ms, 0746ms total)
T0B70 008:405 JLINK_Step() -- Read from C cache (2 bytes @ 0x080056C2) -- Simulated  returns 0x00 (0000ms, 0746ms total)
T0B70 008:405 JLINK_ReadReg(R15 (PC))  returns 0x080056C4 (0000ms, 0746ms total)
T0B70 008:405 JLINK_ReadReg(XPSR)  returns 0x61000000 (0000ms, 0746ms total)
T0B70 008:405 JLINK_Step() -- Read from C cache (2 bytes @ 0x080056C4) -- CPU_WriteMem(4 bytes @ 0x20002EDC) -- Simulated  returns 0x00 (0002ms, 0748ms total)
T0B70 008:407 JLINK_ReadReg(R15 (PC))  returns 0x080056C6 (0000ms, 0748ms total)
T0B70 008:407 JLINK_ReadReg(XPSR)  returns 0x61000000 (0000ms, 0748ms total)
T0B70 008:407 JLINK_Step() -- Read from C cache (2 bytes @ 0x080056C6) -- Read from C cache (2 bytes @ 0x080056C8) -- Not simulated -- CPU_WriteMem(4 bytes @ 0xE0002008) -- CPU_WriteMem(4 bytes @ 0xE0001004)  returns 0x00 (0008ms, 0756ms total)
T0B70 008:415 JLINK_ReadReg(R15 (PC))  returns 0x080056CA (0000ms, 0756ms total)
T0B70 008:415 JLINK_ReadReg(XPSR)  returns 0x61000000 (0000ms, 0756ms total)
T0B70 008:415 JLINK_Step() -- CPU_ReadMem(64 bytes @ 0x080056C0) -- Updating C cache (64 bytes @ 0x080056C0) -- Read from C cache (2 bytes @ 0x080056CA) -- CPU_ReadMem(4 bytes @ 0xE0001004) -- CPU_WriteMem(4 bytes @ 0x20002EE8) -- Simulated  returns 0x00 (0003ms, 0759ms total)
T0B70 008:418 JLINK_ReadReg(R15 (PC))  returns 0x080056CC (0000ms, 0759ms total)
T0B70 008:418 JLINK_ReadReg(XPSR)  returns 0x61000000 (0000ms, 0759ms total)
T0B70 008:418 JLINK_Step() -- Read from C cache (2 bytes @ 0x080056CC) -- Simulated  returns 0x00 (0000ms, 0759ms total)
T0B70 008:418 JLINK_ReadReg(R15 (PC))  returns 0x080056CE (0000ms, 0759ms total)
T0B70 008:418 JLINK_ReadReg(XPSR)  returns 0x61000000 (0000ms, 0759ms total)
T0B70 008:418 JLINK_Step() -- Read from C cache (2 bytes @ 0x080056CE) -- Simulated  returns 0x00 (0000ms, 0759ms total)
T0B70 008:418 JLINK_ReadReg(R15 (PC))  returns 0x080056D0 (0000ms, 0759ms total)
T0B70 008:418 JLINK_ReadReg(XPSR)  returns 0x21000000 (0000ms, 0759ms total)
T0B70 008:418 JLINK_Step() -- Read from C cache (2 bytes @ 0x080056D0) -- Simulated  returns 0x00 (0000ms, 0759ms total)
T0B70 008:418 JLINK_ReadReg(R15 (PC))  returns 0x080056D2 (0000ms, 0759ms total)
T0B70 008:418 JLINK_ReadReg(XPSR)  returns 0x21000000 (0000ms, 0759ms total)
T0B70 008:418 JLINK_Step() -- Read from C cache (2 bytes @ 0x080056D2) -- Read from C cache (4 bytes @ 0x080056F8) -- Simulated  returns 0x00 (0000ms, 0759ms total)
T0B70 008:418 JLINK_ReadReg(R15 (PC))  returns 0x080056D4 (0000ms, 0759ms total)
T0B70 008:418 JLINK_ReadReg(XPSR)  returns 0x21000000 (0000ms, 0759ms total)
T0B70 008:418 JLINK_Step() -- Read from C cache (2 bytes @ 0x080056D4) -- Read from C cache (2 bytes @ 0x080056D6) -- Not simulated -- CPU_WriteMem(4 bytes @ 0xE0001004)  returns 0x00 (0008ms, 0767ms total)
T0B70 008:426 JLINK_ReadReg(R15 (PC))  returns 0x080056D8 (0000ms, 0767ms total)
T0B70 008:426 JLINK_ReadReg(XPSR)  returns 0x21000000 (0000ms, 0767ms total)
T0B70 008:426 JLINK_Step() -- CPU_ReadMem(64 bytes @ 0x080056C0) -- Updating C cache (64 bytes @ 0x080056C0) -- Read from C cache (2 bytes @ 0x080056D8) -- CPU_ReadMem(4 bytes @ 0xE0001004) -- Read from C cache (2 bytes @ 0x080056DA) -- Not simulated  returns 0x00 (0008ms, 0775ms total)
T0B70 008:434 JLINK_ReadReg(R15 (PC))  returns 0x080056DC (0000ms, 0775ms total)
T0B70 008:434 JLINK_ReadReg(XPSR)  returns 0x21000000 (0000ms, 0775ms total)
T0B70 008:434 JLINK_Step() -- CPU_ReadMem(64 bytes @ 0x080056C0) -- Updating C cache (64 bytes @ 0x080056C0) -- Read from C cache (2 bytes @ 0x080056DC) -- CPU_ReadMem(4 bytes @ 0xE0001004) -- Simulated  returns 0x00 (0003ms, 0778ms total)
T0B70 008:437 JLINK_ReadReg(R15 (PC))  returns 0x080056DE (0000ms, 0778ms total)
T0B70 008:437 JLINK_ReadReg(XPSR)  returns 0x21000000 (0000ms, 0778ms total)
T0B70 008:437 JLINK_Step() -- Read from C cache (2 bytes @ 0x080056DE) -- Simulated  returns 0x00 (0000ms, 0778ms total)
T0B70 008:437 JLINK_ReadReg(R15 (PC))  returns 0x080056E0 (0000ms, 0778ms total)
T0B70 008:437 JLINK_ReadReg(XPSR)  returns 0x61000000 (0000ms, 0778ms total)
T0B70 008:437 JLINK_Step() -- Read from C cache (2 bytes @ 0x080056E0) -- Read from C cache (4 bytes @ 0x080056FC) -- Simulated  returns 0x00 (0000ms, 0778ms total)
T0B70 008:437 JLINK_ReadReg(R15 (PC))  returns 0x080056E2 (0000ms, 0778ms total)
T0B70 008:437 JLINK_ReadReg(XPSR)  returns 0x61000000 (0000ms, 0778ms total)
T0B70 008:437 JLINK_Step() -- Read from C cache (2 bytes @ 0x080056E2) -- Simulated  returns 0x00 (0000ms, 0778ms total)
T0B70 008:437 JLINK_ReadReg(R15 (PC))  returns 0x080056E4 (0000ms, 0778ms total)
T0B70 008:437 JLINK_ReadReg(XPSR)  returns 0x61000000 (0000ms, 0778ms total)
T0B70 008:437 JLINK_Step() -- Read from C cache (2 bytes @ 0x080056E4) -- CPU_WriteMem(4 bytes @ 0x20002EC8) -- Simulated  returns 0x00 (0002ms, 0780ms total)
T0B70 008:439 JLINK_ReadReg(R15 (PC))  returns 0x080056E6 (0000ms, 0780ms total)
T0B70 008:439 JLINK_ReadReg(XPSR)  returns 0x61000000 (0000ms, 0780ms total)
T0B70 008:439 JLINK_Step() -- Read from C cache (2 bytes @ 0x080056E6) -- CPU_ReadMem(64 bytes @ 0x08005700) -- Updating C cache (64 bytes @ 0x08005700) -- Read from C cache (4 bytes @ 0x08005710) -- Simulated  returns 0x00 (0002ms, 0782ms total)
T0B70 008:441 JLINK_ReadReg(R15 (PC))  returns 0x080056E8 (0000ms, 0782ms total)
T0B70 008:441 JLINK_ReadReg(XPSR)  returns 0x61000000 (0000ms, 0782ms total)
T0B70 008:441 JLINK_SetBPEx(Addr = 0x080056EC, Type = 0xFFFFFFF2)  returns 0x00000003 (0000ms, 0782ms total)
T0B70 008:441 JLINK_Go() -- CPU_WriteMem(4 bytes @ 0xE0002008) -- CPU_WriteMem(4 bytes @ 0xE0001004) (0004ms, 0786ms total)
T0B70 008:545 JLINK_IsHalted()  returns TRUE (0004ms, 0790ms total)
T0B70 008:549 JLINK_Halt()  returns 0x00 (0000ms, 0786ms total)
T0B70 008:549 JLINK_IsHalted()  returns TRUE (0000ms, 0786ms total)
T0B70 008:549 JLINK_IsHalted()  returns TRUE (0000ms, 0786ms total)
T0B70 008:549 JLINK_IsHalted()  returns TRUE (0000ms, 0786ms total)
T0B70 008:549 JLINK_ReadReg(R15 (PC))  returns 0x080056EC (0000ms, 0786ms total)
T0B70 008:549 JLINK_ReadReg(XPSR)  returns 0x21000000 (0000ms, 0786ms total)
T0B70 008:549 JLINK_ClrBPEx(BPHandle = 0x00000003)  returns 0x00 (0000ms, 0786ms total)
T0B70 008:549 JLINK_ReadMemU32(0xE000ED30, 0x0001 Items, ...) -- CPU_ReadMem(4 bytes @ 0xE000ED30) - Data: 03 00 00 00  returns 0x01 (0001ms, 0787ms total)
T0B70 008:550 JLINK_ReadMemU32(0xE0001028, 0x0001 Items, ...) -- CPU_ReadMem(4 bytes @ 0xE0001028) - Data: 00 00 00 00  returns 0x01 (0001ms, 0788ms total)
T0B70 008:551 JLINK_ReadMemU32(0xE0001038, 0x0001 Items, ...) -- CPU_ReadMem(4 bytes @ 0xE0001038) - Data: 00 02 00 00  returns 0x01 (0001ms, 0789ms total)
T0B70 008:552 JLINK_ReadMemU32(0xE0001048, 0x0001 Items, ...) -- CPU_ReadMem(4 bytes @ 0xE0001048) - Data: 00 00 00 00  returns 0x01 (0001ms, 0790ms total)
T0B70 008:553 JLINK_ReadMemU32(0xE0001058, 0x0001 Items, ...) -- CPU_ReadMem(4 bytes @ 0xE0001058) - Data: 00 00 00 00  returns 0x01 (0001ms, 0791ms total)
T0B70 008:554 JLINK_ReadReg(R0)  returns 0x00000000 (0000ms, 0791ms total)
T0B70 008:554 JLINK_ReadReg(R1)  returns 0x00010360 (0000ms, 0791ms total)
T0B70 008:554 JLINK_ReadReg(R2)  returns 0x00000000 (0000ms, 0791ms total)
T0B70 008:554 JLINK_ReadReg(R3)  returns 0x00000000 (0000ms, 0791ms total)
T0B70 008:554 JLINK_ReadReg(R4)  returns 0x080059B8 (0000ms, 0791ms total)
T0B70 008:554 JLINK_ReadReg(R5)  returns 0x080059B8 (0000ms, 0791ms total)
T0B70 008:554 JLINK_ReadReg(R6)  returns 0x06060606 (0000ms, 0791ms total)
T0B70 008:554 JLINK_ReadReg(R7)  returns 0x07070707 (0000ms, 0791ms total)
T0B70 008:554 JLINK_ReadReg(R8)  returns 0x08080808 (0000ms, 0791ms total)
T0B70 008:554 JLINK_ReadReg(R9)  returns 0x09090909 (0000ms, 0791ms total)
T0B70 008:554 JLINK_ReadReg(R10)  returns 0x10101010 (0000ms, 0791ms total)
T0B70 008:554 JLINK_ReadReg(R11)  returns 0x11111111 (0000ms, 0791ms total)
T0B70 008:554 JLINK_ReadReg(R12)  returns 0x04040404 (0000ms, 0791ms total)
T0B70 008:554 JLINK_ReadReg(R13 (SP))  returns 0x20002EC8 (0000ms, 0791ms total)
T0B70 008:554 JLINK_ReadReg(R14)  returns 0x0800164B (0000ms, 0791ms total)
T0B70 008:554 JLINK_ReadReg(R15 (PC))  returns 0x080056EC (0000ms, 0791ms total)
T0B70 008:554 JLINK_ReadReg(XPSR)  returns 0x21000000 (0000ms, 0791ms total)
T0B70 008:554 JLINK_ReadReg(MSP)  returns 0x20002EC8 (0001ms, 0792ms total)
T0B70 008:555 JLINK_ReadReg(PSP)  returns 0x20000DD0 (0000ms, 0792ms total)
T0B70 008:555 JLINK_ReadReg(CFBP)  returns 0x00000000 (0000ms, 0792ms total)
T0A30 008:555 JLINK_ReadMem (0x20002EF4, 0x0004 Bytes, ...) -- CPU_ReadMem(64 bytes @ 0x20002EC0) -- Updating C cache (64 bytes @ 0x20002EC0) -- Read from C cache (4 bytes @ 0x20002EF4) - Data: 99 03 00 08  returns 0x00 (0002ms, 0794ms total)
T0A30 008:557 JLINK_ReadMem (0x20002EF0, 0x0002 Bytes, ...) -- Read from C cache (2 bytes @ 0x20002EF0) - Data: 00 00  returns 0x00 (0000ms, 0794ms total)
T0A30 008:557 JLINK_ReadMemU32(0xE0001004, 0x0001 Items, ...) -- CPU_ReadMem(4 bytes @ 0xE0001004) - Data: 8C 04 01 00  returns 0x01 (0001ms, 0795ms total)
T0A30 008:561 JLINK_ReadMem (0x080056EC, 0x003C Bytes, ...) -- CPU_ReadMem(128 bytes @ 0x080056C0) -- Updating C cache (128 bytes @ 0x080056C0) -- Read from C cache (60 bytes @ 0x080056EC) - Data: 0A A8 FB F7 85 FD 00 20 0B B0 00 BD 18 02 00 20 ...  returns 0x00 (0002ms, 0797ms total)
T0B70 011:698 JLINK_Step() -- Read from C cache (2 bytes @ 0x080056EC) -- Simulated  returns 0x00 (0003ms, 0800ms total)
T0B70 011:701 JLINK_ReadReg(R15 (PC))  returns 0x080056EE (0000ms, 0800ms total)
T0B70 011:701 JLINK_ReadReg(XPSR)  returns 0x21000000 (0000ms, 0800ms total)
T0B70 011:730 JLINK_Step() -- Read from C cache (2 bytes @ 0x080056EE) -- Read from C cache (2 bytes @ 0x080056F0) -- Simulated  returns 0x00 (0000ms, 0800ms total)
T0B70 011:730 JLINK_ReadReg(R15 (PC))  returns 0x080011FC (0000ms, 0800ms total)
T0B70 011:730 JLINK_ReadReg(XPSR)  returns 0x21000000 (0000ms, 0800ms total)
T0B70 011:730 JLINK_ReadReg(R0)  returns 0x20002EF0 (0000ms, 0800ms total)
T0B70 011:730 JLINK_ReadReg(R1)  returns 0x00010360 (0000ms, 0800ms total)
T0B70 011:730 JLINK_ReadReg(R2)  returns 0x00000000 (0001ms, 0801ms total)
T0B70 011:731 JLINK_ReadReg(R3)  returns 0x00000000 (0000ms, 0801ms total)
T0B70 011:731 JLINK_ReadReg(R4)  returns 0x080059B8 (0000ms, 0801ms total)
T0B70 011:731 JLINK_ReadReg(R5)  returns 0x080059B8 (0000ms, 0801ms total)
T0B70 011:731 JLINK_ReadReg(R6)  returns 0x06060606 (0000ms, 0801ms total)
T0B70 011:731 JLINK_ReadReg(R7)  returns 0x07070707 (0000ms, 0801ms total)
T0B70 011:731 JLINK_ReadReg(R8)  returns 0x08080808 (0000ms, 0801ms total)
T0B70 011:731 JLINK_ReadReg(R9)  returns 0x09090909 (0000ms, 0801ms total)
T0B70 011:731 JLINK_ReadReg(R10)  returns 0x10101010 (0000ms, 0801ms total)
T0B70 011:731 JLINK_ReadReg(R11)  returns 0x11111111 (0000ms, 0801ms total)
T0B70 011:731 JLINK_ReadReg(R12)  returns 0x04040404 (0000ms, 0801ms total)
T0B70 011:731 JLINK_ReadReg(R13 (SP))  returns 0x20002EC8 (0000ms, 0801ms total)
T0B70 011:731 JLINK_ReadReg(R14)  returns 0x080056F3 (0000ms, 0801ms total)
T0B70 011:731 JLINK_ReadReg(R15 (PC))  returns 0x080011FC (0000ms, 0801ms total)
T0B70 011:731 JLINK_ReadReg(XPSR)  returns 0x21000000 (0000ms, 0801ms total)
T0B70 011:731 JLINK_ReadReg(MSP)  returns 0x20002EC8 (0000ms, 0801ms total)
T0B70 011:731 JLINK_ReadReg(PSP)  returns 0x20000DD0 (0000ms, 0801ms total)
T0B70 011:731 JLINK_ReadReg(CFBP)  returns 0x00000000 (0000ms, 0801ms total)
T0A30 011:731 JLINK_ReadMem (0x20002EF4, 0x0004 Bytes, ...) -- Read from C cache (4 bytes @ 0x20002EF4) - Data: 99 03 00 08  returns 0x00 (0001ms, 0802ms total)
T0A30 011:732 JLINK_ReadMem (0x00000000, 0x0004 Bytes, ...) -- CPU_ReadMem(4 bytes @ 0x00000004) -- CPU_ReadMem(64 bytes @ 0x08000000) -- Updating C cache (64 bytes @ 0x08000000) -- Read from C cache (4 bytes @ 0x08000000) - Data: F8 2E 00 20  returns 0x00 (0002ms, 0804ms total)
T0A30 011:738 JLINK_ReadMem (0x20002EF0, 0x0002 Bytes, ...) -- Read from C cache (2 bytes @ 0x20002EF0) - Data: 00 00  returns 0x00 (0000ms, 0804ms total)
T0A30 011:738 JLINK_ReadMemU32(0xE0001004, 0x0001 Items, ...) - Data: 8C 04 01 00  returns 0x01 (0000ms, 0804ms total)
T0B70 012:794 JLINK_ReadMem (0x080011FC, 0x003C Bytes, ...) -- CPU_ReadMem(128 bytes @ 0x080011C0) -- Updating C cache (128 bytes @ 0x080011C0) -- Read from C cache (60 bytes @ 0x080011FC) - Data: 10 B5 04 46 12 48 00 78 E8 B9 01 F0 1D FF 11 49 ...  returns 0x00 (0003ms, 0807ms total)
T0B70 012:797 JLINK_Step() -- Read from C cache (2 bytes @ 0x080011FC) -- CPU_WriteMem(8 bytes @ 0x20002EC0) -- Simulated  returns 0x00 (0002ms, 0809ms total)
T0B70 012:799 JLINK_ReadReg(R15 (PC))  returns 0x080011FE (0000ms, 0809ms total)
T0B70 012:799 JLINK_ReadReg(XPSR)  returns 0x21000000 (0000ms, 0809ms total)
T0B70 012:799 JLINK_Step() -- Read from C cache (2 bytes @ 0x080011FE) -- Simulated  returns 0x00 (0000ms, 0809ms total)
T0B70 012:799 JLINK_ReadReg(R15 (PC))  returns 0x08001200 (0000ms, 0809ms total)
T0B70 012:799 JLINK_ReadReg(XPSR)  returns 0x21000000 (0000ms, 0809ms total)
T0B70 012:799 JLINK_ReadReg(R0)  returns 0x20002EF0 (0000ms, 0809ms total)
T0B70 012:799 JLINK_ReadReg(R1)  returns 0x00010360 (0000ms, 0809ms total)
T0B70 012:799 JLINK_ReadReg(R2)  returns 0x00000000 (0000ms, 0809ms total)
T0B70 012:799 JLINK_ReadReg(R3)  returns 0x00000000 (0000ms, 0809ms total)
T0B70 012:799 JLINK_ReadReg(R4)  returns 0x20002EF0 (0000ms, 0809ms total)
T0B70 012:799 JLINK_ReadReg(R5)  returns 0x080059B8 (0000ms, 0809ms total)
T0B70 012:799 JLINK_ReadReg(R6)  returns 0x06060606 (0000ms, 0809ms total)
T0B70 012:799 JLINK_ReadReg(R7)  returns 0x07070707 (0000ms, 0809ms total)
T0B70 012:799 JLINK_ReadReg(R8)  returns 0x08080808 (0000ms, 0809ms total)
T0B70 012:799 JLINK_ReadReg(R9)  returns 0x09090909 (0000ms, 0809ms total)
T0B70 012:799 JLINK_ReadReg(R10)  returns 0x10101010 (0000ms, 0809ms total)
T0B70 012:799 JLINK_ReadReg(R11)  returns 0x11111111 (0000ms, 0809ms total)
T0B70 012:799 JLINK_ReadReg(R12)  returns 0x04040404 (0000ms, 0809ms total)
T0B70 012:800 JLINK_ReadReg(R13 (SP))  returns 0x20002EC0 (0000ms, 0810ms total)
T0B70 012:800 JLINK_ReadReg(R14)  returns 0x080056F3 (0000ms, 0810ms total)
T0B70 012:800 JLINK_ReadReg(R15 (PC))  returns 0x08001200 (0000ms, 0810ms total)
T0B70 012:800 JLINK_ReadReg(XPSR)  returns 0x21000000 (0000ms, 0810ms total)
T0B70 012:800 JLINK_ReadReg(MSP)  returns 0x20002EC0 (0000ms, 0810ms total)
T0B70 012:800 JLINK_ReadReg(PSP)  returns 0x20000DD0 (0000ms, 0810ms total)
T0B70 012:800 JLINK_ReadReg(CFBP)  returns 0x00000000 (0000ms, 0810ms total)
T0A30 012:801 JLINK_ReadMem (0x20002EC4, 0x0004 Bytes, ...) -- CPU_ReadMem(64 bytes @ 0x20002EC0) -- Updating C cache (64 bytes @ 0x20002EC0) -- Read from C cache (4 bytes @ 0x20002EC4) - Data: F3 56 00 08  returns 0x00 (0002ms, 0812ms total)
T0A30 012:803 JLINK_ReadMem (0x20002EC0, 0x0004 Bytes, ...) -- Read from C cache (4 bytes @ 0x20002EC0) - Data: B8 59 00 08  returns 0x00 (0000ms, 0812ms total)
T0A30 012:803 JLINK_ReadMem (0x20002EF4, 0x0004 Bytes, ...) -- Read from C cache (4 bytes @ 0x20002EF4) - Data: 99 03 00 08  returns 0x00 (0000ms, 0812ms total)
T0A30 012:803 JLINK_ReadMem (0x20002EF0, 0x0002 Bytes, ...) -- Read from C cache (2 bytes @ 0x20002EF0) - Data: 00 00  returns 0x00 (0000ms, 0812ms total)
T0A30 012:803 JLINK_ReadMemU32(0xE0001004, 0x0001 Items, ...) - Data: 8C 04 01 00  returns 0x01 (0000ms, 0812ms total)
T0A30 012:806 JLINK_ReadMem (0x08001200, 0x003C Bytes, ...) -- Read from C cache (60 bytes @ 0x08001200) - Data: 12 48 00 78 E8 B9 01 F0 1D FF 11 49 08 70 08 46 ...  returns 0x00 (0001ms, 0813ms total)
T0B70 014:251 JLINK_Step() -- Read from C cache (2 bytes @ 0x08001200) -- CPU_ReadMem(64 bytes @ 0x08001240) -- Updating C cache (64 bytes @ 0x08001240) -- Read from C cache (4 bytes @ 0x0800124C) -- Simulated  returns 0x00 (0003ms, 0816ms total)
T0B70 014:254 JLINK_ReadReg(R15 (PC))  returns 0x08001202 (0001ms, 0817ms total)
T0B70 014:255 JLINK_ReadReg(XPSR)  returns 0x21000000 (0000ms, 0817ms total)
T0B70 014:255 JLINK_Step() -- Read from C cache (2 bytes @ 0x08001202) -- CPU_ReadMem(64 bytes @ 0x20000080) -- Updating C cache (64 bytes @ 0x20000080) -- Read from C cache (1 bytes @ 0x20000090) -- Simulated  returns 0x00 (0001ms, 0818ms total)
T0B70 014:256 JLINK_ReadReg(R15 (PC))  returns 0x08001204 (0001ms, 0819ms total)
T0B70 014:257 JLINK_ReadReg(XPSR)  returns 0x21000000 (0000ms, 0819ms total)
T0B70 014:257 JLINK_Step() -- Read from C cache (2 bytes @ 0x08001204) -- Simulated  returns 0x00 (0000ms, 0819ms total)
T0B70 014:257 JLINK_ReadReg(R15 (PC))  returns 0x08001206 (0000ms, 0819ms total)
T0B70 014:257 JLINK_ReadReg(XPSR)  returns 0x21000000 (0000ms, 0819ms total)
T0B70 014:257 JLINK_ReadReg(R0)  returns 0x00000000 (0000ms, 0819ms total)
T0B70 014:257 JLINK_ReadReg(R1)  returns 0x00010360 (0000ms, 0819ms total)
T0B70 014:257 JLINK_ReadReg(R2)  returns 0x00000000 (0000ms, 0819ms total)
T0B70 014:257 JLINK_ReadReg(R3)  returns 0x00000000 (0000ms, 0819ms total)
T0B70 014:257 JLINK_ReadReg(R4)  returns 0x20002EF0 (0000ms, 0819ms total)
T0B70 014:257 JLINK_ReadReg(R5)  returns 0x080059B8 (0000ms, 0819ms total)
T0B70 014:257 JLINK_ReadReg(R6)  returns 0x06060606 (0000ms, 0819ms total)
T0B70 014:257 JLINK_ReadReg(R7)  returns 0x07070707 (0000ms, 0819ms total)
T0B70 014:257 JLINK_ReadReg(R8)  returns 0x08080808 (0000ms, 0819ms total)
T0B70 014:257 JLINK_ReadReg(R9)  returns 0x09090909 (0000ms, 0819ms total)
T0B70 014:257 JLINK_ReadReg(R10)  returns 0x10101010 (0000ms, 0819ms total)
T0B70 014:257 JLINK_ReadReg(R11)  returns 0x11111111 (0000ms, 0819ms total)
T0B70 014:257 JLINK_ReadReg(R12)  returns 0x04040404 (0000ms, 0819ms total)
T0B70 014:257 JLINK_ReadReg(R13 (SP))  returns 0x20002EC0 (0000ms, 0819ms total)
T0B70 014:257 JLINK_ReadReg(R14)  returns 0x080056F3 (0000ms, 0819ms total)
T0B70 014:257 JLINK_ReadReg(R15 (PC))  returns 0x08001206 (0000ms, 0819ms total)
T0B70 014:257 JLINK_ReadReg(XPSR)  returns 0x21000000 (0000ms, 0819ms total)
T0B70 014:257 JLINK_ReadReg(MSP)  returns 0x20002EC0 (0000ms, 0819ms total)
T0B70 014:257 JLINK_ReadReg(PSP)  returns 0x20000DD0 (0001ms, 0820ms total)
T0B70 014:258 JLINK_ReadReg(CFBP)  returns 0x00000000 (0000ms, 0820ms total)
T0A30 014:258 JLINK_ReadMem (0x20002EC4, 0x0004 Bytes, ...) -- Read from C cache (4 bytes @ 0x20002EC4) - Data: F3 56 00 08  returns 0x00 (0000ms, 0820ms total)
T0A30 014:258 JLINK_ReadMem (0x20002EC0, 0x0004 Bytes, ...) -- Read from C cache (4 bytes @ 0x20002EC0) - Data: B8 59 00 08  returns 0x00 (0000ms, 0820ms total)
T0A30 014:258 JLINK_ReadMem (0x20002EF4, 0x0004 Bytes, ...) -- Read from C cache (4 bytes @ 0x20002EF4) - Data: 99 03 00 08  returns 0x00 (0000ms, 0820ms total)
T0A30 014:258 JLINK_ReadMem (0x20002EF0, 0x0002 Bytes, ...) -- Read from C cache (2 bytes @ 0x20002EF0) - Data: 00 00  returns 0x00 (0000ms, 0820ms total)
T0A30 014:258 JLINK_ReadMemU32(0xE0001004, 0x0001 Items, ...) - Data: 8C 04 01 00  returns 0x01 (0001ms, 0821ms total)
T0A30 014:263 JLINK_ReadMem (0x08001206, 0x0002 Bytes, ...) -- Read from C cache (2 bytes @ 0x08001206) - Data: 01 F0  returns 0x00 (0000ms, 0821ms total)
T0A30 014:263 JLINK_ReadMem (0x08001208, 0x003C Bytes, ...) -- Read from C cache (60 bytes @ 0x08001208) - Data: 1D FF 11 49 08 70 08 46 00 78 10 49 08 70 0E 48 ...  returns 0x00 (0000ms, 0821ms total)
T0B70 015:143 JLINK_Step() -- Read from C cache (2 bytes @ 0x08001206) -- Read from C cache (2 bytes @ 0x08001208) -- Simulated  returns 0x00 (0000ms, 0821ms total)
T0B70 015:143 JLINK_ReadReg(R15 (PC))  returns 0x08003044 (0000ms, 0821ms total)
T0B70 015:143 JLINK_ReadReg(XPSR)  returns 0x21000000 (0001ms, 0822ms total)
T0B70 015:144 JLINK_ReadReg(R0)  returns 0x00000000 (0000ms, 0822ms total)
T0B70 015:144 JLINK_ReadReg(R1)  returns 0x00010360 (0000ms, 0822ms total)
T0B70 015:144 JLINK_ReadReg(R2)  returns 0x00000000 (0000ms, 0822ms total)
T0B70 015:144 JLINK_ReadReg(R3)  returns 0x00000000 (0000ms, 0822ms total)
T0B70 015:144 JLINK_ReadReg(R4)  returns 0x20002EF0 (0000ms, 0822ms total)
T0B70 015:144 JLINK_ReadReg(R5)  returns 0x080059B8 (0000ms, 0822ms total)
T0B70 015:144 JLINK_ReadReg(R6)  returns 0x06060606 (0000ms, 0822ms total)
T0B70 015:144 JLINK_ReadReg(R7)  returns 0x07070707 (0000ms, 0822ms total)
T0B70 015:144 JLINK_ReadReg(R8)  returns 0x08080808 (0000ms, 0822ms total)
T0B70 015:144 JLINK_ReadReg(R9)  returns 0x09090909 (0000ms, 0822ms total)
T0B70 015:144 JLINK_ReadReg(R10)  returns 0x10101010 (0000ms, 0822ms total)
T0B70 015:144 JLINK_ReadReg(R11)  returns 0x11111111 (0000ms, 0822ms total)
T0B70 015:144 JLINK_ReadReg(R12)  returns 0x04040404 (0000ms, 0822ms total)
T0B70 015:144 JLINK_ReadReg(R13 (SP))  returns 0x20002EC0 (0000ms, 0822ms total)
T0B70 015:144 JLINK_ReadReg(R14)  returns 0x0800120B (0000ms, 0822ms total)
T0B70 015:144 JLINK_ReadReg(R15 (PC))  returns 0x08003044 (0000ms, 0822ms total)
T0B70 015:144 JLINK_ReadReg(XPSR)  returns 0x21000000 (0000ms, 0822ms total)
T0B70 015:144 JLINK_ReadReg(MSP)  returns 0x20002EC0 (0000ms, 0822ms total)
T0B70 015:144 JLINK_ReadReg(PSP)  returns 0x20000DD0 (0000ms, 0822ms total)
T0B70 015:144 JLINK_ReadReg(CFBP)  returns 0x00000000 (0000ms, 0822ms total)
T0A30 015:145 JLINK_ReadMem (0x20002EC4, 0x0004 Bytes, ...) -- Read from C cache (4 bytes @ 0x20002EC4) - Data: F3 56 00 08  returns 0x00 (0000ms, 0822ms total)
T0A30 015:145 JLINK_ReadMem (0x20002EC0, 0x0004 Bytes, ...) -- Read from C cache (4 bytes @ 0x20002EC0) - Data: B8 59 00 08  returns 0x00 (0000ms, 0822ms total)
T0A30 015:145 JLINK_ReadMem (0x20002EF4, 0x0004 Bytes, ...) -- Read from C cache (4 bytes @ 0x20002EF4) - Data: 99 03 00 08  returns 0x00 (0000ms, 0822ms total)
T0A30 015:149 JLINK_ReadMem (0x20002EF0, 0x0002 Bytes, ...) -- Read from C cache (2 bytes @ 0x20002EF0) - Data: 00 00  returns 0x00 (0000ms, 0822ms total)
T0A30 015:149 JLINK_ReadMemU32(0xE0001004, 0x0001 Items, ...) - Data: 8C 04 01 00  returns 0x01 (0000ms, 0822ms total)
T0B70 016:122 JLINK_ReadMem (0x08003044, 0x003C Bytes, ...) -- CPU_ReadMem(64 bytes @ 0x08003040) -- Updating C cache (64 bytes @ 0x08003040) -- Read from C cache (60 bytes @ 0x08003044) - Data: 70 B5 00 25 07 4C 03 E0 05 F1 20 00 C5 B2 24 1D ...  returns 0x00 (0001ms, 0823ms total)
T0B70 016:123 JLINK_Step() -- Read from C cache (2 bytes @ 0x08003044) -- CPU_WriteMem(16 bytes @ 0x20002EB0) -- Simulated  returns 0x00 (0002ms, 0825ms total)
T0B70 016:125 JLINK_ReadReg(R15 (PC))  returns 0x08003046 (0000ms, 0825ms total)
T0B70 016:125 JLINK_ReadReg(XPSR)  returns 0x21000000 (0001ms, 0826ms total)
T0B70 016:126 JLINK_ReadReg(R0)  returns 0x00000000 (0000ms, 0826ms total)
T0B70 016:126 JLINK_ReadReg(R1)  returns 0x00010360 (0000ms, 0826ms total)
T0B70 016:126 JLINK_ReadReg(R2)  returns 0x00000000 (0000ms, 0826ms total)
T0B70 016:126 JLINK_ReadReg(R3)  returns 0x00000000 (0000ms, 0826ms total)
T0B70 016:126 JLINK_ReadReg(R4)  returns 0x20002EF0 (0000ms, 0826ms total)
T0B70 016:126 JLINK_ReadReg(R5)  returns 0x080059B8 (0000ms, 0826ms total)
T0B70 016:126 JLINK_ReadReg(R6)  returns 0x06060606 (0000ms, 0826ms total)
T0B70 016:126 JLINK_ReadReg(R7)  returns 0x07070707 (0000ms, 0826ms total)
T0B70 016:126 JLINK_ReadReg(R8)  returns 0x08080808 (0000ms, 0826ms total)
T0B70 016:126 JLINK_ReadReg(R9)  returns 0x09090909 (0000ms, 0826ms total)
T0B70 016:126 JLINK_ReadReg(R10)  returns 0x10101010 (0000ms, 0826ms total)
T0B70 016:126 JLINK_ReadReg(R11)  returns 0x11111111 (0000ms, 0826ms total)
T0B70 016:126 JLINK_ReadReg(R12)  returns 0x04040404 (0000ms, 0826ms total)
T0B70 016:126 JLINK_ReadReg(R13 (SP))  returns 0x20002EB0 (0000ms, 0826ms total)
T0B70 016:126 JLINK_ReadReg(R14)  returns 0x0800120B (0000ms, 0826ms total)
T0B70 016:126 JLINK_ReadReg(R15 (PC))  returns 0x08003046 (0000ms, 0826ms total)
T0B70 016:126 JLINK_ReadReg(XPSR)  returns 0x21000000 (0000ms, 0826ms total)
T0B70 016:126 JLINK_ReadReg(MSP)  returns 0x20002EB0 (0000ms, 0826ms total)
T0B70 016:126 JLINK_ReadReg(PSP)  returns 0x20000DD0 (0000ms, 0826ms total)
T0B70 016:126 JLINK_ReadReg(CFBP)  returns 0x00000000 (0000ms, 0826ms total)
T0A30 016:127 JLINK_ReadMem (0x20002EBC, 0x0004 Bytes, ...) -- CPU_ReadMem(64 bytes @ 0x20002E80) -- Updating C cache (64 bytes @ 0x20002E80) -- Read from C cache (4 bytes @ 0x20002EBC) - Data: 0B 12 00 08  returns 0x00 (0001ms, 0827ms total)
T0A30 016:128 JLINK_ReadMem (0x20002EB0, 0x0004 Bytes, ...) -- Read from C cache (4 bytes @ 0x20002EB0) - Data: F0 2E 00 20  returns 0x00 (0000ms, 0827ms total)
T0A30 016:128 JLINK_ReadMem (0x20002EB4, 0x0004 Bytes, ...) -- Read from C cache (4 bytes @ 0x20002EB4) - Data: B8 59 00 08  returns 0x00 (0000ms, 0827ms total)
T0A30 016:129 JLINK_ReadMem (0x20002EB8, 0x0004 Bytes, ...) -- Read from C cache (4 bytes @ 0x20002EB8) - Data: 06 06 06 06  returns 0x00 (0000ms, 0827ms total)
T0A30 016:129 JLINK_ReadMem (0x20002EC4, 0x0004 Bytes, ...) -- Read from C cache (4 bytes @ 0x20002EC4) - Data: F3 56 00 08  returns 0x00 (0000ms, 0827ms total)
T0A30 016:129 JLINK_ReadMem (0x20002EC0, 0x0004 Bytes, ...) -- Read from C cache (4 bytes @ 0x20002EC0) - Data: B8 59 00 08  returns 0x00 (0000ms, 0827ms total)
T0A30 016:129 JLINK_ReadMem (0x20002EF4, 0x0004 Bytes, ...) -- Read from C cache (4 bytes @ 0x20002EF4) - Data: 99 03 00 08  returns 0x00 (0000ms, 0827ms total)
T0A30 016:129 JLINK_ReadMem (0x20002EF0, 0x0002 Bytes, ...) -- Read from C cache (2 bytes @ 0x20002EF0) - Data: 00 00  returns 0x00 (0000ms, 0827ms total)
T0A30 016:129 JLINK_ReadMemU32(0xE0001004, 0x0001 Items, ...) - Data: 8C 04 01 00  returns 0x01 (0000ms, 0827ms total)
T0A30 016:133 JLINK_ReadMem (0x08003046, 0x0002 Bytes, ...) -- Read from C cache (2 bytes @ 0x08003046) - Data: 00 25  returns 0x00 (0000ms, 0827ms total)
T0A30 016:133 JLINK_ReadMem (0x08003048, 0x003C Bytes, ...) -- CPU_ReadMem(64 bytes @ 0x08003080) -- Updating C cache (64 bytes @ 0x08003080) -- Read from C cache (60 bytes @ 0x08003048) - Data: 07 4C 03 E0 05 F1 20 00 C5 B2 24 1D 20 68 00 28 ...  returns 0x00 (0001ms, 0828ms total)
T0B70 016:515 JLINK_Step() -- Read from C cache (2 bytes @ 0x08003046) -- Simulated  returns 0x00 (0000ms, 0828ms total)
T0B70 016:515 JLINK_ReadReg(R15 (PC))  returns 0x08003048 (0000ms, 0828ms total)
T0B70 016:515 JLINK_ReadReg(XPSR)  returns 0x61000000 (0000ms, 0828ms total)
T0B70 016:515 JLINK_ReadReg(R0)  returns 0x00000000 (0000ms, 0828ms total)
T0B70 016:515 JLINK_ReadReg(R1)  returns 0x00010360 (0000ms, 0828ms total)
T0B70 016:515 JLINK_ReadReg(R2)  returns 0x00000000 (0000ms, 0828ms total)
T0B70 016:515 JLINK_ReadReg(R3)  returns 0x00000000 (0000ms, 0828ms total)
T0B70 016:515 JLINK_ReadReg(R4)  returns 0x20002EF0 (0000ms, 0828ms total)
T0B70 016:515 JLINK_ReadReg(R5)  returns 0x00000000 (0000ms, 0828ms total)
T0B70 016:515 JLINK_ReadReg(R6)  returns 0x06060606 (0000ms, 0828ms total)
T0B70 016:515 JLINK_ReadReg(R7)  returns 0x07070707 (0001ms, 0829ms total)
T0B70 016:516 JLINK_ReadReg(R8)  returns 0x08080808 (0000ms, 0829ms total)
T0B70 016:516 JLINK_ReadReg(R9)  returns 0x09090909 (0000ms, 0829ms total)
T0B70 016:516 JLINK_ReadReg(R10)  returns 0x10101010 (0000ms, 0829ms total)
T0B70 016:516 JLINK_ReadReg(R11)  returns 0x11111111 (0000ms, 0829ms total)
T0B70 016:516 JLINK_ReadReg(R12)  returns 0x04040404 (0000ms, 0829ms total)
T0B70 016:516 JLINK_ReadReg(R13 (SP))  returns 0x20002EB0 (0000ms, 0829ms total)
T0B70 016:516 JLINK_ReadReg(R14)  returns 0x0800120B (0000ms, 0829ms total)
T0B70 016:516 JLINK_ReadReg(R15 (PC))  returns 0x08003048 (0000ms, 0829ms total)
T0B70 016:516 JLINK_ReadReg(XPSR)  returns 0x61000000 (0000ms, 0829ms total)
T0B70 016:516 JLINK_ReadReg(MSP)  returns 0x20002EB0 (0000ms, 0829ms total)
T0B70 016:516 JLINK_ReadReg(PSP)  returns 0x20000DD0 (0000ms, 0829ms total)
T0B70 016:516 JLINK_ReadReg(CFBP)  returns 0x00000000 (0000ms, 0829ms total)
T0A30 016:519 JLINK_ReadMem (0x20002EBC, 0x0004 Bytes, ...) -- Read from C cache (4 bytes @ 0x20002EBC) - Data: 0B 12 00 08  returns 0x00 (0000ms, 0829ms total)
T0A30 016:519 JLINK_ReadMem (0x20002EB0, 0x0004 Bytes, ...) -- Read from C cache (4 bytes @ 0x20002EB0) - Data: F0 2E 00 20  returns 0x00 (0000ms, 0829ms total)
T0A30 016:519 JLINK_ReadMem (0x20002EB4, 0x0004 Bytes, ...) -- Read from C cache (4 bytes @ 0x20002EB4) - Data: B8 59 00 08  returns 0x00 (0000ms, 0829ms total)
T0A30 016:519 JLINK_ReadMem (0x20002EB8, 0x0004 Bytes, ...) -- Read from C cache (4 bytes @ 0x20002EB8) - Data: 06 06 06 06  returns 0x00 (0000ms, 0829ms total)
